======================================================================
MODBUS RTU CU48 EMULATOR - COMMAND LOG
======================================================================
Generated: 2025-10-15 13:15:34
======================================================================

[2025-10-15 13:08:11.730] Device 0x01 - Read Coils (0x01)
  Request:  01 01 00 00 00 01 FD CA
  Parameters: Frame length: 8 bytes, CRC: ✓ Valid
  Result: Received (processing...)
----------------------------------------------------------------------
[2025-10-15 13:08:11.730] Device 0x01 - Response (0x01)
  Response: 01 01 01 01 90 48
  Parameters: Response sent (6 bytes)
  Result: Sent 6 bytes
----------------------------------------------------------------------
[2025-10-15 13:08:11.730] Device 0x01 - Read Coils (0x01)
  Request:  01 01 00 00 00 01 FD CA
  Response: 01 01 01 01 90 48
  Parameters: Start: 0x0000 (0), Count: 1
  Result: Returned 1 bytes: 01
----------------------------------------------------------------------
[2025-10-15 13:08:11.810] Device 0x01 - Read Holding Registers (0x03)
  Request:  01 03 00 0F 00 01 B4
  Parameters: Frame length: 7 bytes, CRC: ✗ Invalid
  Result: Received (processing...)
----------------------------------------------------------------------
[2025-10-15 13:08:11.825] Device 0x09 - Unknown (0x00) (0x00)
  Request:  09
  Parameters: Frame length: 1 bytes, CRC: ✗ Invalid
  Result: Received (processing...)
----------------------------------------------------------------------
[2025-10-15 13:08:11.937] Device 0x01 - Read Holding Registers (0x03)
  Request:  01 03 00 0F 00 01 B4 09
  Parameters: Frame length: 8 bytes, CRC: ✓ Valid
  Result: Received (processing...)
----------------------------------------------------------------------
[2025-10-15 13:08:11.937] Device 0x01 - Response (0x03)
  Response: 01 03 02 E2 30 F0 F0
  Parameters: Response sent (7 bytes)
  Result: Sent 7 bytes
----------------------------------------------------------------------
[2025-10-15 13:08:11.937] Device 0x01 - Read Holding Registers (0x03)
  Request:  01 03 00 0F 00 01 B4 09
  Response: 01 03 02 E2 30 F0 F0
  Parameters: Start: 0x000F (15), Count: 1
  Result: Returned 1 registers (2 bytes)
----------------------------------------------------------------------
[2025-10-15 13:08:12.000] Device 0x01 - Read Holding Registers (0x03)
  Request:  01 03 00 F5 00 02 D4 39
  Parameters: Frame length: 8 bytes, CRC: ✓ Valid
  Result: Received (processing...)
----------------------------------------------------------------------
[2025-10-15 13:08:12.000] Device 0x01 - Response (0x03)
  Response: 01 03 04 00 02 00 04 5A 30
  Parameters: Response sent (9 bytes)
  Result: Sent 9 bytes
----------------------------------------------------------------------
[2025-10-15 13:08:12.000] Device 0x01 - Read Holding Registers (0x03)
  Request:  01 03 00 F5 00 02 D4 39
  Response: 01 03 04 00 02 00 04 5A 30
  Parameters: Start: 0x00F5 (245), Count: 2
  Result: Returned 2 registers (4 bytes)
----------------------------------------------------------------------
[2025-10-15 13:08:12.065] Device 0x02 - Read Coils (0x01)
  Request:  02 01 00 00 00 01 FD F9
  Parameters: Frame length: 8 bytes, CRC: ✓ Valid
  Result: Received (processing...)
----------------------------------------------------------------------
[2025-10-15 13:08:12.065] Device 0x02 - Response (0x01)
  Response: 02 01 01 01 90 0C
  Parameters: Response sent (6 bytes)
  Result: Sent 6 bytes
----------------------------------------------------------------------
[2025-10-15 13:08:12.065] Device 0x02 - Read Coils (0x01)
  Request:  02 01 00 00 00 01 FD F9
  Response: 02 01 01 01 90 0C
  Parameters: Start: 0x0000 (0), Count: 1
  Result: Returned 1 bytes: 01
----------------------------------------------------------------------
[2025-10-15 13:08:12.129] Device 0x02 - Read Holding Registers (0x03)
  Request:  02 03 00 0F 00 01 B4 3A
  Parameters: Frame length: 8 bytes, CRC: ✓ Valid
  Result: Received (processing...)
----------------------------------------------------------------------
[2025-10-15 13:08:12.129] Device 0x02 - Response (0x03)
  Response: 02 03 02 00 00 FC 44
  Parameters: Response sent (7 bytes)
  Result: Sent 7 bytes
----------------------------------------------------------------------
[2025-10-15 13:08:12.129] Device 0x02 - Read Holding Registers (0x03)
  Request:  02 03 00 0F 00 01 B4 3A
  Response: 02 03 02 00 00 FC 44
  Parameters: Start: 0x000F (15), Count: 1
  Result: Returned 1 registers (2 bytes)
----------------------------------------------------------------------
[2025-10-15 13:08:12.177] Device 0x02 - Read Holding Registers (0x03)
  Request:  02 03 00 F5 00 02 D4
  Parameters: Frame length: 7 bytes, CRC: ✗ Invalid
  Result: Received (processing...)
----------------------------------------------------------------------
[2025-10-15 13:08:12.193] Device 0x0A - Unknown (0x00) (0x00)
  Request:  0A
  Parameters: Frame length: 1 bytes, CRC: ✗ Invalid
  Result: Received (processing...)
----------------------------------------------------------------------
[2025-10-15 13:08:12.305] Device 0x03 - Read Coils (0x01)
  Request:  03 01 00 00 00 01 FC 28
  Parameters: Frame length: 8 bytes, CRC: ✓ Valid
  Result: Received (processing...)
----------------------------------------------------------------------
[2025-10-15 13:08:12.305] Device 0x00 - No Response (0x00)
  Parameters: No response - device not emulated
  Result: No response sent
----------------------------------------------------------------------
[2025-10-15 13:08:12.433] Device 0x04 - Read Coils (0x01)
  Request:  04 01 00 00 00 01 FD 9F
  Parameters: Frame length: 8 bytes, CRC: ✓ Valid
  Result: Received (processing...)
----------------------------------------------------------------------
[2025-10-15 13:08:12.433] Device 0x00 - No Response (0x00)
  Parameters: No response - device not emulated
  Result: No response sent
----------------------------------------------------------------------
[2025-10-15 13:08:12.544] Device 0x05 - Read Coils (0x01)
  Request:  05 01 00 00 00 01 FC 4E
  Parameters: Frame length: 8 bytes, CRC: ✓ Valid
  Result: Received (processing...)
----------------------------------------------------------------------
[2025-10-15 13:08:12.544] Device 0x00 - No Response (0x00)
  Parameters: No response - device not emulated
  Result: No response sent
----------------------------------------------------------------------
[2025-10-15 13:08:12.656] Device 0x06 - Read Coils (0x01)
  Request:  06 01 00 00 00
  Parameters: Frame length: 5 bytes, CRC: ✗ Invalid
  Result: Received (processing...)
----------------------------------------------------------------------
[2025-10-15 13:08:12.672] Device 0x01 - Unknown (0xFC) (0xFC)
  Request:  01 FC 7D
  Parameters: Frame length: 3 bytes, CRC: ✗ Invalid
  Result: Received (processing...)
----------------------------------------------------------------------
[2025-10-15 13:08:12.783] Device 0x07 - Read Coils (0x01)
  Request:  07 01 00 00 00 01 FD AC
  Parameters: Frame length: 8 bytes, CRC: ✓ Valid
  Result: Received (processing...)
----------------------------------------------------------------------
[2025-10-15 13:08:12.783] Device 0x00 - No Response (0x00)
  Parameters: No response - device not emulated
  Result: No response sent
----------------------------------------------------------------------
[2025-10-15 13:08:12.895] Device 0x08 - Read Coils (0x01)
  Request:  08 01 00 00 00 01 FD 53
  Parameters: Frame length: 8 bytes, CRC: ✓ Valid
  Result: Received (processing...)
----------------------------------------------------------------------
[2025-10-15 13:08:12.895] Device 0x00 - No Response (0x00)
  Parameters: No response - device not emulated
  Result: No response sent
----------------------------------------------------------------------
[2025-10-15 13:08:13.007] Device 0x09 - Read Coils (0x01)
  Request:  09 01 00
  Parameters: Frame length: 3 bytes, CRC: ✗ Invalid
  Result: Received (processing...)
----------------------------------------------------------------------
[2025-10-15 13:08:13.024] Device 0x00 - Unknown (0x00) (0x00)
  Request:  00 00 01 FC 82
  Parameters: Frame length: 5 bytes, CRC: ✗ Invalid
  Result: Received (processing...)
----------------------------------------------------------------------
[2025-10-15 13:08:13.135] Device 0x0A - Read Coils (0x01)
  Request:  0A 01 00 00 00 01 FC B1
  Parameters: Frame length: 8 bytes, CRC: ✓ Valid
  Result: Received (processing...)
----------------------------------------------------------------------
[2025-10-15 13:08:13.135] Device 0x00 - No Response (0x00)
  Parameters: No response - device not emulated
  Result: No response sent
----------------------------------------------------------------------
[2025-10-15 13:08:13.247] Device 0x0B - Read Coils (0x01)
  Request:  0B 01 00 00 00 01 FD 60
  Parameters: Frame length: 8 bytes, CRC: ✓ Valid
  Result: Received (processing...)
----------------------------------------------------------------------
[2025-10-15 13:08:13.247] Device 0x00 - No Response (0x00)
  Parameters: No response - device not emulated
  Result: No response sent
----------------------------------------------------------------------
[2025-10-15 13:08:13.374] Device 0x0C - Read Coils (0x01)
  Request:  0C 01 00 00 00 01 FC D7
  Parameters: Frame length: 8 bytes, CRC: ✓ Valid
  Result: Received (processing...)
----------------------------------------------------------------------
[2025-10-15 13:08:13.374] Device 0x00 - No Response (0x00)
  Parameters: No response - device not emulated
  Result: No response sent
----------------------------------------------------------------------
[2025-10-15 13:08:13.486] Device 0x0D - Read Coils (0x01)
  Request:  0D 01 00 00 00 01 FD 06
  Parameters: Frame length: 8 bytes, CRC: ✓ Valid
  Result: Received (processing...)
----------------------------------------------------------------------
[2025-10-15 13:08:13.486] Device 0x00 - No Response (0x00)
  Parameters: No response - device not emulated
  Result: No response sent
----------------------------------------------------------------------
[2025-10-15 13:08:13.598] Device 0x0E - Read Coils (0x01)
  Request:  0E 01 00 00 00 01
  Parameters: Frame length: 6 bytes, CRC: ✗ Invalid
  Result: Received (processing...)
----------------------------------------------------------------------
[2025-10-15 13:08:13.614] Device 0xFD - Unknown (0x35) (0x35)
  Request:  FD 35
  Parameters: Frame length: 2 bytes, CRC: ✗ Invalid
  Result: Received (processing...)
----------------------------------------------------------------------
[2025-10-15 13:08:13.726] Device 0x0F - Read Coils (0x01)
  Request:  0F 01 00 00 00 01 FC E4
  Parameters: Frame length: 8 bytes, CRC: ✓ Valid
  Result: Received (processing...)
----------------------------------------------------------------------
[2025-10-15 13:08:13.726] Device 0x00 - No Response (0x00)
  Parameters: No response - device not emulated
  Result: No response sent
----------------------------------------------------------------------
[2025-10-15 13:08:13.837] Device 0x10 - Read Coils (0x01)
  Request:  10 01 00 00 00 01 FE 8B
  Parameters: Frame length: 8 bytes, CRC: ✓ Valid
  Result: Received (processing...)
----------------------------------------------------------------------
[2025-10-15 13:08:13.837] Device 0x00 - No Response (0x00)
  Parameters: No response - device not emulated
  Result: No response sent
----------------------------------------------------------------------
[2025-10-15 13:08:15.403] Device 0x01 - Read Coils (0x01)
  Request:  01 01 00 00 00 30 3C 1E
  Parameters: Frame length: 8 bytes, CRC: ✓ Valid
  Result: Received (processing...)
----------------------------------------------------------------------
[2025-10-15 13:08:15.403] Device 0x01 - Response (0x01)
  Response: 01 01 06 FF FF FF FF FF FF A1 23
  Parameters: Response sent (11 bytes)
  Result: Sent 11 bytes
----------------------------------------------------------------------
[2025-10-15 13:08:15.403] Device 0x01 - Read Coils (0x01)
  Request:  01 01 00 00 00 30 3C 1E
  Response: 01 01 06 FF FF FF FF FF FF A1 23
  Parameters: Start: 0x0000 (0), Count: 48
  Result: Returned 6 bytes: FF FF FF FF FF FF
----------------------------------------------------------------------
[2025-10-15 13:08:15.468] Device 0x02 - Read Coils (0x01)
  Request:  02 01 00 00 00 00 3C 39
  Parameters: Frame length: 8 bytes, CRC: ✓ Valid
  Result: Received (processing...)
----------------------------------------------------------------------
[2025-10-15 13:08:15.468] Device 0x02 - Response (0x01)
  Response: 02 01 00 D1 90
  Parameters: Response sent (5 bytes)
  Result: Sent 5 bytes
----------------------------------------------------------------------
[2025-10-15 13:08:15.468] Device 0x02 - Read Coils (0x01)
  Request:  02 01 00 00 00 00 3C 39
  Response: 02 01 00 D1 90
  Parameters: Start: 0x0000 (0), Count: 0
  Result: Returned 0 bytes: 
----------------------------------------------------------------------
[2025-10-15 13:08:15.594] Device 0x01 - Read Coils (0x01)
  Request:  01 01 00 00 00 30 3C 1E
  Parameters: Frame length: 8 bytes, CRC: ✓ Valid
  Result: Received (processing...)
----------------------------------------------------------------------
[2025-10-15 13:08:15.594] Device 0x01 - Response (0x01)
  Response: 01 01 06 FF FF FF FF FF FF A1 23
  Parameters: Response sent (11 bytes)
  Result: Sent 11 bytes
----------------------------------------------------------------------
[2025-10-15 13:08:15.594] Device 0x01 - Read Coils (0x01)
  Request:  01 01 00 00 00 30 3C 1E
  Response: 01 01 06 FF FF FF FF FF FF A1 23
  Parameters: Start: 0x0000 (0), Count: 48
  Result: Returned 6 bytes: FF FF FF FF FF FF
----------------------------------------------------------------------
[2025-10-15 13:08:15.659] Device 0x02 - Read Coils (0x01)
  Request:  02 01 00 00 00
  Parameters: Frame length: 5 bytes, CRC: ✗ Invalid
  Result: Received (processing...)
----------------------------------------------------------------------
[2025-10-15 13:08:15.674] Device 0x00 - Unknown (0x3C) (0x3C)
  Request:  00 3C 39
  Parameters: Frame length: 3 bytes, CRC: ✗ Invalid
  Result: Received (processing...)
----------------------------------------------------------------------
[2025-10-15 13:08:15.834] Device 0x02 - Read Coils (0x01)
  Request:  02 01 00
  Parameters: Frame length: 3 bytes, CRC: ✗ Invalid
  Result: Received (processing...)
----------------------------------------------------------------------
[2025-10-15 13:08:15.850] Device 0x00 - Unknown (0x00) (0x00)
  Request:  00 00 00 3C 39
  Parameters: Frame length: 5 bytes, CRC: ✗ Invalid
  Result: Received (processing...)
----------------------------------------------------------------------
[2025-10-15 13:08:16.122] Device 0x02 - Read Coils (0x01)
  Request:  02 01 00 00 00 00 3C 39
  Parameters: Frame length: 8 bytes, CRC: ✓ Valid
  Result: Received (processing...)
----------------------------------------------------------------------
[2025-10-15 13:08:16.122] Device 0x02 - Response (0x01)
  Response: 02 01 00 D1 90
  Parameters: Response sent (5 bytes)
  Result: Sent 5 bytes
----------------------------------------------------------------------
[2025-10-15 13:08:16.122] Device 0x02 - Read Coils (0x01)
  Request:  02 01 00 00 00 00 3C 39
  Response: 02 01 00 D1 90
  Parameters: Start: 0x0000 (0), Count: 0
  Result: Returned 0 bytes: 
----------------------------------------------------------------------
[2025-10-15 13:08:16.233] Device 0x01 - Read Coils (0x01)
  Request:  01 01 00 00 00 30 3C 1E
  Parameters: Frame length: 8 bytes, CRC: ✓ Valid
  Result: Received (processing...)
----------------------------------------------------------------------
[2025-10-15 13:08:16.233] Device 0x01 - Response (0x01)
  Response: 01 01 06 FF FF FF FF FF FF A1 23
  Parameters: Response sent (11 bytes)
  Result: Sent 11 bytes
----------------------------------------------------------------------
[2025-10-15 13:08:16.233] Device 0x01 - Read Coils (0x01)
  Request:  01 01 00 00 00 30 3C 1E
  Response: 01 01 06 FF FF FF FF FF FF A1 23
  Parameters: Start: 0x0000 (0), Count: 48
  Result: Returned 6 bytes: FF FF FF FF FF FF
----------------------------------------------------------------------
[2025-10-15 13:08:16.314] Device 0x02 - Read Coils (0x01)
  Request:  02 01 00 00 00 00 3C 39
  Parameters: Frame length: 8 bytes, CRC: ✓ Valid
  Result: Received (processing...)
----------------------------------------------------------------------
[2025-10-15 13:08:16.314] Device 0x02 - Response (0x01)
  Response: 02 01 00 D1 90
  Parameters: Response sent (5 bytes)
  Result: Sent 5 bytes
----------------------------------------------------------------------
[2025-10-15 13:08:16.314] Device 0x02 - Read Coils (0x01)
  Request:  02 01 00 00 00 00 3C 39
  Response: 02 01 00 D1 90
  Parameters: Start: 0x0000 (0), Count: 0
  Result: Returned 0 bytes: 
----------------------------------------------------------------------
[2025-10-15 13:08:16.409] Device 0x01 - Read Coils (0x01)
  Request:  01 01 00 00 00 30 3C 1E
  Parameters: Frame length: 8 bytes, CRC: ✓ Valid
  Result: Received (processing...)
----------------------------------------------------------------------
[2025-10-15 13:08:16.409] Device 0x01 - Response (0x01)
  Response: 01 01 06 FF FF FF FF FF FF A1 23
  Parameters: Response sent (11 bytes)
  Result: Sent 11 bytes
----------------------------------------------------------------------
[2025-10-15 13:08:16.409] Device 0x01 - Read Coils (0x01)
  Request:  01 01 00 00 00 30 3C 1E
  Response: 01 01 06 FF FF FF FF FF FF A1 23
  Parameters: Start: 0x0000 (0), Count: 48
  Result: Returned 6 bytes: FF FF FF FF FF FF
----------------------------------------------------------------------
[2025-10-15 13:08:16.473] Device 0x02 - Read Coils (0x01)
  Request:  02 01 00 00 00 00 3C 39
  Parameters: Frame length: 8 bytes, CRC: ✓ Valid
  Result: Received (processing...)
----------------------------------------------------------------------
[2025-10-15 13:08:16.473] Device 0x02 - Response (0x01)
  Response: 02 01 00 D1 90
  Parameters: Response sent (5 bytes)
  Result: Sent 5 bytes
----------------------------------------------------------------------
[2025-10-15 13:08:16.473] Device 0x02 - Read Coils (0x01)
  Request:  02 01 00 00 00 00 3C 39
  Response: 02 01 00 D1 90
  Parameters: Start: 0x0000 (0), Count: 0
  Result: Returned 0 bytes: 
----------------------------------------------------------------------
[2025-10-15 13:08:16.554] Device 0x01 - Read Coils (0x01)
  Request:  01 01 00 00 00 30 3C 1E
  Parameters: Frame length: 8 bytes, CRC: ✓ Valid
  Result: Received (processing...)
----------------------------------------------------------------------
[2025-10-15 13:08:16.554] Device 0x01 - Response (0x01)
  Response: 01 01 06 FF FF FF FF FF FF A1 23
  Parameters: Response sent (11 bytes)
  Result: Sent 11 bytes
----------------------------------------------------------------------
[2025-10-15 13:08:16.554] Device 0x01 - Read Coils (0x01)
  Request:  01 01 00 00 00 30 3C 1E
  Response: 01 01 06 FF FF FF FF FF FF A1 23
  Parameters: Start: 0x0000 (0), Count: 48
  Result: Returned 6 bytes: FF FF FF FF FF FF
----------------------------------------------------------------------
[2025-10-15 13:08:16.634] Device 0x02 - Read Coils (0x01)
  Request:  02 01 00 00 00 00 3C 39
  Parameters: Frame length: 8 bytes, CRC: ✓ Valid
  Result: Received (processing...)
----------------------------------------------------------------------
[2025-10-15 13:08:16.634] Device 0x02 - Response (0x01)
  Response: 02 01 00 D1 90
  Parameters: Response sent (5 bytes)
  Result: Sent 5 bytes
----------------------------------------------------------------------
[2025-10-15 13:08:16.634] Device 0x02 - Read Coils (0x01)
  Request:  02 01 00 00 00 00 3C 39
  Response: 02 01 00 D1 90
  Parameters: Start: 0x0000 (0), Count: 0
  Result: Returned 0 bytes: 
----------------------------------------------------------------------
[2025-10-15 13:08:16.745] Device 0x01 - Read Coils (0x01)
  Request:  01 01 00 00 00 30 3C 1E
  Parameters: Frame length: 8 bytes, CRC: ✓ Valid
  Result: Received (processing...)
----------------------------------------------------------------------
[2025-10-15 13:08:16.745] Device 0x01 - Response (0x01)
  Response: 01 01 06 FF FF FF FF FF FF A1 23
  Parameters: Response sent (11 bytes)
  Result: Sent 11 bytes
----------------------------------------------------------------------
[2025-10-15 13:08:16.745] Device 0x01 - Read Coils (0x01)
  Request:  01 01 00 00 00 30 3C 1E
  Response: 01 01 06 FF FF FF FF FF FF A1 23
  Parameters: Start: 0x0000 (0), Count: 48
  Result: Returned 6 bytes: FF FF FF FF FF FF
----------------------------------------------------------------------
[2025-10-15 13:08:16.809] Device 0x02 - Read Coils (0x01)
  Request:  02 01 00 00 00 00 3C 39
  Parameters: Frame length: 8 bytes, CRC: ✓ Valid
  Result: Received (processing...)
----------------------------------------------------------------------
[2025-10-15 13:08:16.809] Device 0x02 - Response (0x01)
  Response: 02 01 00 D1 90
  Parameters: Response sent (5 bytes)
  Result: Sent 5 bytes
----------------------------------------------------------------------
[2025-10-15 13:08:16.809] Device 0x02 - Read Coils (0x01)
  Request:  02 01 00 00 00 00 3C 39
  Response: 02 01 00 D1 90
  Parameters: Start: 0x0000 (0), Count: 0
  Result: Returned 0 bytes: 
----------------------------------------------------------------------
[2025-10-15 13:08:16.889] Device 0x01 - Read Coils (0x01)
  Request:  01 01 00 00 00 30 3C 1E
  Parameters: Frame length: 8 bytes, CRC: ✓ Valid
  Result: Received (processing...)
----------------------------------------------------------------------
[2025-10-15 13:08:16.889] Device 0x01 - Response (0x01)
  Response: 01 01 06 FF FF FF FF FF FF A1 23
  Parameters: Response sent (11 bytes)
  Result: Sent 11 bytes
----------------------------------------------------------------------
[2025-10-15 13:08:16.889] Device 0x01 - Read Coils (0x01)
  Request:  01 01 00 00 00 30 3C 1E
  Response: 01 01 06 FF FF FF FF FF FF A1 23
  Parameters: Start: 0x0000 (0), Count: 48
  Result: Returned 6 bytes: FF FF FF FF FF FF
----------------------------------------------------------------------
[2025-10-15 13:08:16.953] Device 0x02 - Read Coils (0x01)
  Request:  02 01 00 00 00 00 3C 39
  Parameters: Frame length: 8 bytes, CRC: ✓ Valid
  Result: Received (processing...)
----------------------------------------------------------------------
[2025-10-15 13:08:16.953] Device 0x02 - Response (0x01)
  Response: 02 01 00 D1 90
  Parameters: Response sent (5 bytes)
  Result: Sent 5 bytes
----------------------------------------------------------------------
[2025-10-15 13:08:16.953] Device 0x02 - Read Coils (0x01)
  Request:  02 01 00 00 00 00 3C 39
  Response: 02 01 00 D1 90
  Parameters: Start: 0x0000 (0), Count: 0
  Result: Returned 0 bytes: 
----------------------------------------------------------------------
[2025-10-15 13:08:17.033] Device 0x01 - Read Coils (0x01)
  Request:  01 01 00 00 00 30 3C 1E
  Parameters: Frame length: 8 bytes, CRC: ✓ Valid
  Result: Received (processing...)
----------------------------------------------------------------------
[2025-10-15 13:08:17.033] Device 0x01 - Response (0x01)
  Response: 01 01 06 FF FF FF FF FF FF A1 23
  Parameters: Response sent (11 bytes)
  Result: Sent 11 bytes
----------------------------------------------------------------------
[2025-10-15 13:08:17.033] Device 0x01 - Read Coils (0x01)
  Request:  01 01 00 00 00 30 3C 1E
  Response: 01 01 06 FF FF FF FF FF FF A1 23
  Parameters: Start: 0x0000 (0), Count: 48
  Result: Returned 6 bytes: FF FF FF FF FF FF
----------------------------------------------------------------------
[2025-10-15 13:08:17.095] Device 0x02 - Read Coils (0x01)
  Request:  02 01 00 00 00 00 3C 39
  Parameters: Frame length: 8 bytes, CRC: ✓ Valid
  Result: Received (processing...)
----------------------------------------------------------------------
[2025-10-15 13:08:17.095] Device 0x02 - Response (0x01)
  Response: 02 01 00 D1 90
  Parameters: Response sent (5 bytes)
  Result: Sent 5 bytes
----------------------------------------------------------------------
[2025-10-15 13:08:17.095] Device 0x02 - Read Coils (0x01)
  Request:  02 01 00 00 00 00 3C 39
  Response: 02 01 00 D1 90
  Parameters: Start: 0x0000 (0), Count: 0
  Result: Returned 0 bytes: 
----------------------------------------------------------------------
[2025-10-15 13:08:17.176] Device 0x01 - Read Coils (0x01)
  Request:  01 01 00 00 00 30 3C 1E
  Parameters: Frame length: 8 bytes, CRC: ✓ Valid
  Result: Received (processing...)
----------------------------------------------------------------------
[2025-10-15 13:08:17.176] Device 0x01 - Response (0x01)
  Response: 01 01 06 FF FF FF FF FF FF A1 23
  Parameters: Response sent (11 bytes)
  Result: Sent 11 bytes
----------------------------------------------------------------------
[2025-10-15 13:08:17.176] Device 0x01 - Read Coils (0x01)
  Request:  01 01 00 00 00 30 3C 1E
  Response: 01 01 06 FF FF FF FF FF FF A1 23
  Parameters: Start: 0x0000 (0), Count: 48
  Result: Returned 6 bytes: FF FF FF FF FF FF
----------------------------------------------------------------------
[2025-10-15 13:08:17.241] Device 0x02 - Read Coils (0x01)
  Request:  02 01 00 00 00 00 3C 39
  Parameters: Frame length: 8 bytes, CRC: ✓ Valid
  Result: Received (processing...)
----------------------------------------------------------------------
[2025-10-15 13:08:17.241] Device 0x02 - Response (0x01)
  Response: 02 01 00 D1 90
  Parameters: Response sent (5 bytes)
  Result: Sent 5 bytes
----------------------------------------------------------------------
[2025-10-15 13:08:17.241] Device 0x02 - Read Coils (0x01)
  Request:  02 01 00 00 00 00 3C 39
  Response: 02 01 00 D1 90
  Parameters: Start: 0x0000 (0), Count: 0
  Result: Returned 0 bytes: 
----------------------------------------------------------------------
[2025-10-15 13:08:17.352] Device 0x01 - Read Coils (0x01)
  Request:  01 01 00 00 00 30 3C
  Parameters: Frame length: 7 bytes, CRC: ✗ Invalid
  Result: Received (processing...)
----------------------------------------------------------------------
[2025-10-15 13:08:17.368] Device 0x1E - Unknown (0x00) (0x00)
  Request:  1E
  Parameters: Frame length: 1 bytes, CRC: ✗ Invalid
  Result: Received (processing...)
----------------------------------------------------------------------
[2025-10-15 13:08:17.480] Device 0x01 - Read Coils (0x01)
  Request:  01 01 00 00 00 30 3C 1E
  Parameters: Frame length: 8 bytes, CRC: ✓ Valid
  Result: Received (processing...)
----------------------------------------------------------------------
[2025-10-15 13:08:17.480] Device 0x01 - Response (0x01)
  Response: 01 01 06 FF FF FF FF FF FF A1 23
  Parameters: Response sent (11 bytes)
  Result: Sent 11 bytes
----------------------------------------------------------------------
[2025-10-15 13:08:17.480] Device 0x01 - Read Coils (0x01)
  Request:  01 01 00 00 00 30 3C 1E
  Response: 01 01 06 FF FF FF FF FF FF A1 23
  Parameters: Start: 0x0000 (0), Count: 48
  Result: Returned 6 bytes: FF FF FF FF FF FF
----------------------------------------------------------------------
[2025-10-15 13:08:17.623] Device 0x02 - Read Coils (0x01)
  Request:  02 01 00 00 00 00 3C
  Parameters: Frame length: 7 bytes, CRC: ✗ Invalid
  Result: Received (processing...)
----------------------------------------------------------------------
[2025-10-15 13:08:17.639] Device 0x39 - Unknown (0x00) (0x00)
  Request:  39
  Parameters: Frame length: 1 bytes, CRC: ✗ Invalid
  Result: Received (processing...)
----------------------------------------------------------------------
[2025-10-15 13:08:17.752] Device 0x02 - Read Coils (0x01)
  Request:  02 01 00 00 00 00 3C 39
  Parameters: Frame length: 8 bytes, CRC: ✓ Valid
  Result: Received (processing...)
----------------------------------------------------------------------
[2025-10-15 13:08:17.752] Device 0x02 - Response (0x01)
  Response: 02 01 00 D1 90
  Parameters: Response sent (5 bytes)
  Result: Sent 5 bytes
----------------------------------------------------------------------
[2025-10-15 13:08:17.752] Device 0x02 - Read Coils (0x01)
  Request:  02 01 00 00 00 00 3C 39
  Response: 02 01 00 D1 90
  Parameters: Start: 0x0000 (0), Count: 0
  Result: Returned 0 bytes: 
----------------------------------------------------------------------
[2025-10-15 13:08:17.895] Device 0x01 - Read Coils (0x01)
  Request:  01 01 00 00 00 30 3C 1E
  Parameters: Frame length: 8 bytes, CRC: ✓ Valid
  Result: Received (processing...)
----------------------------------------------------------------------
[2025-10-15 13:08:17.895] Device 0x01 - Response (0x01)
  Response: 01 01 06 FF FF FF FF FF FF A1 23
  Parameters: Response sent (11 bytes)
  Result: Sent 11 bytes
----------------------------------------------------------------------
[2025-10-15 13:08:17.895] Device 0x01 - Read Coils (0x01)
  Request:  01 01 00 00 00 30 3C 1E
  Response: 01 01 06 FF FF FF FF FF FF A1 23
  Parameters: Start: 0x0000 (0), Count: 48
  Result: Returned 6 bytes: FF FF FF FF FF FF
----------------------------------------------------------------------
[2025-10-15 13:08:17.943] Device 0x02 - Read Coils (0x01)
  Request:  02 01
  Parameters: Frame length: 2 bytes, CRC: ✗ Invalid
  Result: Received (processing...)
----------------------------------------------------------------------
[2025-10-15 13:08:17.959] Device 0x00 - Unknown (0x00) (0x00)
  Request:  00 00 00 00 3C 39
  Parameters: Frame length: 6 bytes, CRC: ✗ Invalid
  Result: Received (processing...)
----------------------------------------------------------------------
[2025-10-15 13:08:18.071] Device 0x02 - Read Coils (0x01)
  Request:  02 01 00 00 00 00 3C 39
  Parameters: Frame length: 8 bytes, CRC: ✓ Valid
  Result: Received (processing...)
----------------------------------------------------------------------
[2025-10-15 13:08:18.071] Device 0x02 - Response (0x01)
  Response: 02 01 00 D1 90
  Parameters: Response sent (5 bytes)
  Result: Sent 5 bytes
----------------------------------------------------------------------
[2025-10-15 13:08:18.071] Device 0x02 - Read Coils (0x01)
  Request:  02 01 00 00 00 00 3C 39
  Response: 02 01 00 D1 90
  Parameters: Start: 0x0000 (0), Count: 0
  Result: Returned 0 bytes: 
----------------------------------------------------------------------
[2025-10-15 13:08:18.246] Device 0x01 - Read Coils (0x01)
  Request:  01 01 00
  Parameters: Frame length: 3 bytes, CRC: ✗ Invalid
  Result: Received (processing...)
----------------------------------------------------------------------
[2025-10-15 13:08:18.262] Device 0x00 - Unknown (0x00) (0x00)
  Request:  00 00 30 3C 1E
  Parameters: Frame length: 5 bytes, CRC: ✗ Invalid
  Result: Received (processing...)
----------------------------------------------------------------------
[2025-10-15 13:08:18.390] Device 0x01 - Read Coils (0x01)
  Request:  01 01 00 00 00 30 3C 1E
  Parameters: Frame length: 8 bytes, CRC: ✓ Valid
  Result: Received (processing...)
----------------------------------------------------------------------
[2025-10-15 13:08:18.390] Device 0x01 - Response (0x01)
  Response: 01 01 06 FF FF FF FF FF FF A1 23
  Parameters: Response sent (11 bytes)
  Result: Sent 11 bytes
----------------------------------------------------------------------
[2025-10-15 13:08:18.390] Device 0x01 - Read Coils (0x01)
  Request:  01 01 00 00 00 30 3C 1E
  Response: 01 01 06 FF FF FF FF FF FF A1 23
  Parameters: Start: 0x0000 (0), Count: 48
  Result: Returned 6 bytes: FF FF FF FF FF FF
----------------------------------------------------------------------
[2025-10-15 13:08:18.551] Device 0x02 - Read Coils (0x01)
  Request:  02 01 00
  Parameters: Frame length: 3 bytes, CRC: ✗ Invalid
  Result: Received (processing...)
----------------------------------------------------------------------
[2025-10-15 13:08:18.565] Device 0x00 - Unknown (0x00) (0x00)
  Request:  00 00 00 3C 39
  Parameters: Frame length: 5 bytes, CRC: ✗ Invalid
  Result: Received (processing...)
----------------------------------------------------------------------
[2025-10-15 13:08:18.694] Device 0x02 - Read Coils (0x01)
  Request:  02 01 00 00 00 00 3C 39
  Parameters: Frame length: 8 bytes, CRC: ✓ Valid
  Result: Received (processing...)
----------------------------------------------------------------------
[2025-10-15 13:08:18.694] Device 0x02 - Response (0x01)
  Response: 02 01 00 D1 90
  Parameters: Response sent (5 bytes)
  Result: Sent 5 bytes
----------------------------------------------------------------------
[2025-10-15 13:08:18.694] Device 0x02 - Read Coils (0x01)
  Request:  02 01 00 00 00 00 3C 39
  Response: 02 01 00 D1 90
  Parameters: Start: 0x0000 (0), Count: 0
  Result: Returned 0 bytes: 
----------------------------------------------------------------------
[2025-10-15 13:08:18.838] Device 0x01 - Unknown (0x00) (0x00)
  Request:  01
  Parameters: Frame length: 1 bytes, CRC: ✗ Invalid
  Result: Received (processing...)
----------------------------------------------------------------------
[2025-10-15 13:08:18.853] Device 0x01 - Unknown (0x00) (0x00)
  Request:  01 00 00 00 30 3C 1E
  Parameters: Frame length: 7 bytes, CRC: ✗ Invalid
  Result: Received (processing...)
----------------------------------------------------------------------
[2025-10-15 13:08:18.965] Device 0x01 - Read Coils (0x01)
  Request:  01 01 00 00 00 30 3C 1E
  Parameters: Frame length: 8 bytes, CRC: ✓ Valid
  Result: Received (processing...)
----------------------------------------------------------------------
[2025-10-15 13:08:18.965] Device 0x01 - Response (0x01)
  Response: 01 01 06 FF FF FF FF FF FF A1 23
  Parameters: Response sent (11 bytes)
  Result: Sent 11 bytes
----------------------------------------------------------------------
[2025-10-15 13:08:18.965] Device 0x01 - Read Coils (0x01)
  Request:  01 01 00 00 00 30 3C 1E
  Response: 01 01 06 FF FF FF FF FF FF A1 23
  Parameters: Start: 0x0000 (0), Count: 48
  Result: Returned 6 bytes: FF FF FF FF FF FF
----------------------------------------------------------------------
[2025-10-15 13:08:19.093] Device 0x02 - Read Coils (0x01)
  Request:  02 01 00 00 00 00 3C 39
  Parameters: Frame length: 8 bytes, CRC: ✓ Valid
  Result: Received (processing...)
----------------------------------------------------------------------
[2025-10-15 13:08:19.093] Device 0x02 - Response (0x01)
  Response: 02 01 00 D1 90
  Parameters: Response sent (5 bytes)
  Result: Sent 5 bytes
----------------------------------------------------------------------
[2025-10-15 13:08:19.093] Device 0x02 - Read Coils (0x01)
  Request:  02 01 00 00 00 00 3C 39
  Response: 02 01 00 D1 90
  Parameters: Start: 0x0000 (0), Count: 0
  Result: Returned 0 bytes: 
----------------------------------------------------------------------
[2025-10-15 13:08:19.173] Device 0x01 - Read Coils (0x01)
  Request:  01 01 00 00 00 30 3C 1E
  Parameters: Frame length: 8 bytes, CRC: ✓ Valid
  Result: Received (processing...)
----------------------------------------------------------------------
[2025-10-15 13:08:19.173] Device 0x01 - Response (0x01)
  Response: 01 01 06 FF FF FF FF FF FF A1 23
  Parameters: Response sent (11 bytes)
  Result: Sent 11 bytes
----------------------------------------------------------------------
[2025-10-15 13:08:19.173] Device 0x01 - Read Coils (0x01)
  Request:  01 01 00 00 00 30 3C 1E
  Response: 01 01 06 FF FF FF FF FF FF A1 23
  Parameters: Start: 0x0000 (0), Count: 48
  Result: Returned 6 bytes: FF FF FF FF FF FF
----------------------------------------------------------------------
[2025-10-15 13:08:19.236] Device 0x02 - Read Coils (0x01)
  Request:  02 01 00 00 00 00 3C 39
  Parameters: Frame length: 8 bytes, CRC: ✓ Valid
  Result: Received (processing...)
----------------------------------------------------------------------
[2025-10-15 13:08:19.236] Device 0x02 - Response (0x01)
  Response: 02 01 00 D1 90
  Parameters: Response sent (5 bytes)
  Result: Sent 5 bytes
----------------------------------------------------------------------
[2025-10-15 13:08:19.236] Device 0x02 - Read Coils (0x01)
  Request:  02 01 00 00 00 00 3C 39
  Response: 02 01 00 D1 90
  Parameters: Start: 0x0000 (0), Count: 0
  Result: Returned 0 bytes: 
----------------------------------------------------------------------
[2025-10-15 13:08:19.365] Device 0x01 - Read Coils (0x01)
  Request:  01 01 00 00 00 30 3C 1E
  Parameters: Frame length: 8 bytes, CRC: ✓ Valid
  Result: Received (processing...)
----------------------------------------------------------------------
[2025-10-15 13:08:19.365] Device 0x01 - Response (0x01)
  Response: 01 01 06 FF FF FF FF FF FF A1 23
  Parameters: Response sent (11 bytes)
  Result: Sent 11 bytes
----------------------------------------------------------------------
[2025-10-15 13:08:19.365] Device 0x01 - Read Coils (0x01)
  Request:  01 01 00 00 00 30 3C 1E
  Response: 01 01 06 FF FF FF FF FF FF A1 23
  Parameters: Start: 0x0000 (0), Count: 48
  Result: Returned 6 bytes: FF FF FF FF FF FF
----------------------------------------------------------------------
[2025-10-15 13:08:19.444] Device 0x02 - Read Coils (0x01)
  Request:  02 01 00 00 00 00 3C 39
  Parameters: Frame length: 8 bytes, CRC: ✓ Valid
  Result: Received (processing...)
----------------------------------------------------------------------
[2025-10-15 13:08:19.444] Device 0x02 - Response (0x01)
  Response: 02 01 00 D1 90
  Parameters: Response sent (5 bytes)
  Result: Sent 5 bytes
----------------------------------------------------------------------
[2025-10-15 13:08:19.444] Device 0x02 - Read Coils (0x01)
  Request:  02 01 00 00 00 00 3C 39
  Response: 02 01 00 D1 90
  Parameters: Start: 0x0000 (0), Count: 0
  Result: Returned 0 bytes: 
----------------------------------------------------------------------
[2025-10-15 13:08:19.524] Device 0x01 - Read Coils (0x01)
  Request:  01 01 00 00 00 30 3C 1E
  Parameters: Frame length: 8 bytes, CRC: ✓ Valid
  Result: Received (processing...)
----------------------------------------------------------------------
[2025-10-15 13:08:19.524] Device 0x01 - Response (0x01)
  Response: 01 01 06 FF FF FF FF FF FF A1 23
  Parameters: Response sent (11 bytes)
  Result: Sent 11 bytes
----------------------------------------------------------------------
[2025-10-15 13:08:19.524] Device 0x01 - Read Coils (0x01)
  Request:  01 01 00 00 00 30 3C 1E
  Response: 01 01 06 FF FF FF FF FF FF A1 23
  Parameters: Start: 0x0000 (0), Count: 48
  Result: Returned 6 bytes: FF FF FF FF FF FF
----------------------------------------------------------------------
[2025-10-15 13:08:19.588] Device 0x02 - Read Coils (0x01)
  Request:  02 01 00 00 00 00 3C 39
  Parameters: Frame length: 8 bytes, CRC: ✓ Valid
  Result: Received (processing...)
----------------------------------------------------------------------
[2025-10-15 13:08:19.588] Device 0x02 - Response (0x01)
  Response: 02 01 00 D1 90
  Parameters: Response sent (5 bytes)
  Result: Sent 5 bytes
----------------------------------------------------------------------
[2025-10-15 13:08:19.588] Device 0x02 - Read Coils (0x01)
  Request:  02 01 00 00 00 00 3C 39
  Response: 02 01 00 D1 90
  Parameters: Start: 0x0000 (0), Count: 0
  Result: Returned 0 bytes: 
----------------------------------------------------------------------
[2025-10-15 13:08:19.668] Device 0x01 - Read Coils (0x01)
  Request:  01 01 00 00 00 30 3C 1E
  Parameters: Frame length: 8 bytes, CRC: ✓ Valid
  Result: Received (processing...)
----------------------------------------------------------------------
[2025-10-15 13:08:19.668] Device 0x01 - Response (0x01)
  Response: 01 01 06 FF FF FF FF FF FF A1 23
  Parameters: Response sent (11 bytes)
  Result: Sent 11 bytes
----------------------------------------------------------------------
[2025-10-15 13:08:19.668] Device 0x01 - Read Coils (0x01)
  Request:  01 01 00 00 00 30 3C 1E
  Response: 01 01 06 FF FF FF FF FF FF A1 23
  Parameters: Start: 0x0000 (0), Count: 48
  Result: Returned 6 bytes: FF FF FF FF FF FF
----------------------------------------------------------------------
[2025-10-15 13:08:19.732] Device 0x02 - Read Coils (0x01)
  Request:  02 01 00 00 00 00 3C 39
  Parameters: Frame length: 8 bytes, CRC: ✓ Valid
  Result: Received (processing...)
----------------------------------------------------------------------
[2025-10-15 13:08:19.732] Device 0x02 - Response (0x01)
  Response: 02 01 00 D1 90
  Parameters: Response sent (5 bytes)
  Result: Sent 5 bytes
----------------------------------------------------------------------
[2025-10-15 13:08:19.732] Device 0x02 - Read Coils (0x01)
  Request:  02 01 00 00 00 00 3C 39
  Response: 02 01 00 D1 90
  Parameters: Start: 0x0000 (0), Count: 0
  Result: Returned 0 bytes: 
----------------------------------------------------------------------
[2025-10-15 13:08:19.813] Device 0x01 - Read Coils (0x01)
  Request:  01 01 00 00 00 30 3C 1E
  Parameters: Frame length: 8 bytes, CRC: ✓ Valid
  Result: Received (processing...)
----------------------------------------------------------------------
[2025-10-15 13:08:19.813] Device 0x01 - Response (0x01)
  Response: 01 01 06 FF FF FF FF FF FF A1 23
  Parameters: Response sent (11 bytes)
  Result: Sent 11 bytes
----------------------------------------------------------------------
[2025-10-15 13:08:19.813] Device 0x01 - Read Coils (0x01)
  Request:  01 01 00 00 00 30 3C 1E
  Response: 01 01 06 FF FF FF FF FF FF A1 23
  Parameters: Start: 0x0000 (0), Count: 48
  Result: Returned 6 bytes: FF FF FF FF FF FF
----------------------------------------------------------------------
[2025-10-15 13:08:19.876] Device 0x02 - Read Coils (0x01)
  Request:  02 01 00 00 00 00 3C 39
  Parameters: Frame length: 8 bytes, CRC: ✓ Valid
  Result: Received (processing...)
----------------------------------------------------------------------
[2025-10-15 13:08:19.876] Device 0x02 - Response (0x01)
  Response: 02 01 00 D1 90
  Parameters: Response sent (5 bytes)
  Result: Sent 5 bytes
----------------------------------------------------------------------
[2025-10-15 13:08:19.876] Device 0x02 - Read Coils (0x01)
  Request:  02 01 00 00 00 00 3C 39
  Response: 02 01 00 D1 90
  Parameters: Start: 0x0000 (0), Count: 0
  Result: Returned 0 bytes: 
----------------------------------------------------------------------
[2025-10-15 13:08:19.955] Device 0x01 - Read Coils (0x01)
  Request:  01 01 00 00 00 30 3C 1E
  Parameters: Frame length: 8 bytes, CRC: ✓ Valid
  Result: Received (processing...)
----------------------------------------------------------------------
[2025-10-15 13:08:19.955] Device 0x01 - Response (0x01)
  Response: 01 01 06 FF FF FF FF FF FF A1 23
  Parameters: Response sent (11 bytes)
  Result: Sent 11 bytes
----------------------------------------------------------------------
[2025-10-15 13:08:19.955] Device 0x01 - Read Coils (0x01)
  Request:  01 01 00 00 00 30 3C 1E
  Response: 01 01 06 FF FF FF FF FF FF A1 23
  Parameters: Start: 0x0000 (0), Count: 48
  Result: Returned 6 bytes: FF FF FF FF FF FF
----------------------------------------------------------------------
[2025-10-15 13:08:20.052] Device 0x02 - Read Coils (0x01)
  Request:  02 01 00 00 00 00 3C 39
  Parameters: Frame length: 8 bytes, CRC: ✓ Valid
  Result: Received (processing...)
----------------------------------------------------------------------
[2025-10-15 13:08:20.052] Device 0x02 - Response (0x01)
  Response: 02 01 00 D1 90
  Parameters: Response sent (5 bytes)
  Result: Sent 5 bytes
----------------------------------------------------------------------
[2025-10-15 13:08:20.052] Device 0x02 - Read Coils (0x01)
  Request:  02 01 00 00 00 00 3C 39
  Response: 02 01 00 D1 90
  Parameters: Start: 0x0000 (0), Count: 0
  Result: Returned 0 bytes: 
----------------------------------------------------------------------
[2025-10-15 13:08:20.227] Device 0x01 - Read Coils (0x01)
  Request:  01 01 00 00 00 30 3C 1E
  Parameters: Frame length: 8 bytes, CRC: ✓ Valid
  Result: Received (processing...)
----------------------------------------------------------------------
[2025-10-15 13:08:20.227] Device 0x01 - Response (0x01)
  Response: 01 01 06 FF FF FF FF FF FF A1 23
  Parameters: Response sent (11 bytes)
  Result: Sent 11 bytes
----------------------------------------------------------------------
[2025-10-15 13:08:20.227] Device 0x01 - Read Coils (0x01)
  Request:  01 01 00 00 00 30 3C 1E
  Response: 01 01 06 FF FF FF FF FF FF A1 23
  Parameters: Start: 0x0000 (0), Count: 48
  Result: Returned 6 bytes: FF FF FF FF FF FF
----------------------------------------------------------------------
[2025-10-15 13:08:20.274] Device 0x02 - Read Coils (0x01)
  Request:  02 01
  Parameters: Frame length: 2 bytes, CRC: ✗ Invalid
  Result: Received (processing...)
----------------------------------------------------------------------
[2025-10-15 13:08:20.291] Device 0x00 - Unknown (0x00) (0x00)
  Request:  00 00 00 00 3C 39
  Parameters: Frame length: 6 bytes, CRC: ✗ Invalid
  Result: Received (processing...)
----------------------------------------------------------------------
[2025-10-15 13:08:20.403] Device 0x02 - Read Coils (0x01)
  Request:  02 01 00 00 00 00 3C 39
  Parameters: Frame length: 8 bytes, CRC: ✓ Valid
  Result: Received (processing...)
----------------------------------------------------------------------
[2025-10-15 13:08:20.403] Device 0x02 - Response (0x01)
  Response: 02 01 00 D1 90
  Parameters: Response sent (5 bytes)
  Result: Sent 5 bytes
----------------------------------------------------------------------
[2025-10-15 13:08:20.403] Device 0x02 - Read Coils (0x01)
  Request:  02 01 00 00 00 00 3C 39
  Response: 02 01 00 D1 90
  Parameters: Start: 0x0000 (0), Count: 0
  Result: Returned 0 bytes: 
----------------------------------------------------------------------
[2025-10-15 13:08:20.546] Device 0x01 - Read Coils (0x01)
  Request:  01 01 00 00 00 30 3C 1E
  Parameters: Frame length: 8 bytes, CRC: ✓ Valid
  Result: Received (processing...)
----------------------------------------------------------------------
[2025-10-15 13:08:20.546] Device 0x01 - Response (0x01)
  Response: 01 01 06 FF FF FF FF FF FF A1 23
  Parameters: Response sent (11 bytes)
  Result: Sent 11 bytes
----------------------------------------------------------------------
[2025-10-15 13:08:20.546] Device 0x01 - Read Coils (0x01)
  Request:  01 01 00 00 00 30 3C 1E
  Response: 01 01 06 FF FF FF FF FF FF A1 23
  Parameters: Start: 0x0000 (0), Count: 48
  Result: Returned 6 bytes: FF FF FF FF FF FF
----------------------------------------------------------------------
[2025-10-15 13:08:20.611] Device 0x02 - Read Coils (0x01)
  Request:  02 01 00 00 00 00 3C 39
  Parameters: Frame length: 8 bytes, CRC: ✓ Valid
  Result: Received (processing...)
----------------------------------------------------------------------
[2025-10-15 13:08:20.611] Device 0x02 - Response (0x01)
  Response: 02 01 00 D1 90
  Parameters: Response sent (5 bytes)
  Result: Sent 5 bytes
----------------------------------------------------------------------
[2025-10-15 13:08:20.611] Device 0x02 - Read Coils (0x01)
  Request:  02 01 00 00 00 00 3C 39
  Response: 02 01 00 D1 90
  Parameters: Start: 0x0000 (0), Count: 0
  Result: Returned 0 bytes: 
----------------------------------------------------------------------
[2025-10-15 13:08:20.674] Device 0x01 - Read Coils (0x01)
  Request:  01 01 00 00 00 30
  Parameters: Frame length: 6 bytes, CRC: ✗ Invalid
  Result: Received (processing...)
----------------------------------------------------------------------
[2025-10-15 13:08:20.690] Device 0x3C - Unknown (0x1E) (0x1E)
  Request:  3C 1E
  Parameters: Frame length: 2 bytes, CRC: ✗ Invalid
  Result: Received (processing...)
----------------------------------------------------------------------
[2025-10-15 13:08:20.819] Device 0x01 - Read Coils (0x01)
  Request:  01 01 00 00 00 30 3C 1E
  Parameters: Frame length: 8 bytes, CRC: ✓ Valid
  Result: Received (processing...)
----------------------------------------------------------------------
[2025-10-15 13:08:20.819] Device 0x01 - Response (0x01)
  Response: 01 01 06 FF FF FF FF FF FF A1 23
  Parameters: Response sent (11 bytes)
  Result: Sent 11 bytes
----------------------------------------------------------------------
[2025-10-15 13:08:20.819] Device 0x01 - Read Coils (0x01)
  Request:  01 01 00 00 00 30 3C 1E
  Response: 01 01 06 FF FF FF FF FF FF A1 23
  Parameters: Start: 0x0000 (0), Count: 48
  Result: Returned 6 bytes: FF FF FF FF FF FF
----------------------------------------------------------------------
